T5900 005:033.721   SEGGER J-Link V7.92n Log File
T5900 005:033.754   DLL Compiled: Oct 31 2023 15:10:15
T5900 005:033.757   Logging started @ 2023-11-09 08:49
T5900 005:033.760   Process: D:\Keil_v5\UV4\UV4.exe
T5900 005:033.763 - 226.672ms
T5900 005:033.767 JLINK_SetWarnOutHandler(...)
T5900 005:033.770 - 0.002ms
T5900 005:033.774 JLINK_OpenEx(...)
T5900 005:035.330   Firmware: J-Link V9 compiled May  7 2021 16:26:12
T5900 005:036.648   Firmware: J-Link V9 compiled May  7 2021 16:26:12
T5900 005:036.744   Decompressing FW timestamp took 87 us
T5900 005:044.683   Hardware: V9.70
T5900 005:044.690   S/N: 150710770
T5900 005:044.694   OEM: SEGGER
T5900 005:044.698   Feature(s): GDB, RDI, FlashBP, FlashDL, JFlash
T5900 005:046.036   Bootloader: (Could not read)
T5900 005:047.490   TELNET listener socket opened on port 19021
T5900 005:051.080   WEBSRV WEBSRV_Init(): Starting webserver thread(s)
T5900 005:051.147   WEBSRV Webserver running on local port 19080
T5900 005:051.181   Looking for J-Link GUI Server exe at: D:\Keil_v5\ARM\Segger\JLinkGUIServer.exe
T5900 005:051.194   Looking for J-Link GUI Server exe at: D:\app\SEGGER\JLink_V792n\JLinkGUIServer.exe
T5900 005:051.200   Forking J-Link GUI Server: D:\app\SEGGER\JLink_V792n\JLinkGUIServer.exe
T5900 005:052.633   J-Link GUI Server info: "J-Link GUI server V7.92n "
T5900 005:052.770 - 18.995ms returns "O.K."
T5900 005:052.783 JLINK_GetEmuCaps()
T5900 005:052.786 - 0.003ms returns 0xB9FF7BBF
T5900 005:052.790 JLINK_TIF_GetAvailable(...)
T5900 005:053.210 - 0.420ms
T5900 005:053.216 JLINK_SetErrorOutHandler(...)
T5900 005:053.219 - 0.002ms
T5900 005:053.226 JLINK_ExecCommand("ProjectFile = "D:\hk32f103cbt6\mx\hk32f103cbt6a_razer_hid\MDK-ARM\JLinkSettings.ini"", ...). 
T5900 005:054.023 - 0.796ms returns 0x00
T5900 005:054.051 JLINK_ExecCommand("Device = STM32F103CB", ...). 
T5900 005:054.267   Device "STM32F103CB" selected.
T5900 005:054.383 - 0.327ms returns 0x00
T5900 005:054.388 JLINK_ExecCommand("DisableConnectionTimeout", ...). 
T5900 005:054.396 - 0.001ms returns 0x01
T5900 005:054.402 JLINK_GetHardwareVersion()
T5900 005:054.405 - 0.003ms returns 97000
T5900 005:054.409 JLINK_GetDLLVersion()
T5900 005:054.412 - 0.002ms returns 79214
T5900 005:054.415 JLINK_GetOEMString(...)
T5900 005:054.419 JLINK_GetFirmwareString(...)
T5900 005:054.422 - 0.002ms
T5900 005:054.433 JLINK_GetDLLVersion()
T5900 005:054.436 - 0.002ms returns 79214
T5900 005:054.440 JLINK_GetCompileDateTime()
T5900 005:054.442 - 0.002ms
T5900 005:054.448 JLINK_GetFirmwareString(...)
T5900 005:054.451 - 0.002ms
T5900 005:054.455 JLINK_GetHardwareVersion()
T5900 005:054.458 - 0.002ms returns 97000
T5900 005:054.464 JLINK_GetSN()
T5900 005:054.467 - 0.002ms returns 150710770
T5900 005:054.472 JLINK_GetOEMString(...)
T5900 005:054.480 JLINK_TIF_Select(JLINKARM_TIF_SWD)
T5900 005:056.004 - 1.523ms returns 0x00
T5900 005:056.027 JLINK_HasError()
T5900 005:056.033 JLINK_SetSpeed(5000)
T5900 005:056.438 - 0.405ms
T5900 005:056.464 JLINK_GetId()
T5900 005:056.866   InitTarget() start
T5900 005:056.871    J-Link Script File: Executing InitTarget()
T5900 005:057.416   SWD selected. Executing JTAG -> SWD switching sequence.
T5900 005:060.628   DAP initialized successfully.
T5900 005:070.598   InitTarget() end - Took 13.7ms
T5900 005:071.863   Found SW-DP with ID 0x2BA01477
T5900 005:075.619   DPIDR: 0x2BA01477
T5900 005:075.633   CoreSight SoC-400 or earlier
T5900 005:075.640   Scanning AP map to find all available APs
T5900 005:076.954   AP[1]: Stopped AP scan as end of AP map has been reached
T5900 005:076.963   AP[0]: AHB-AP (IDR: 0x24770011)
T5900 005:076.969   Iterating through AP map to find AHB-AP to use
T5900 005:078.439   AP[0]: Core found
T5900 005:078.446   AP[0]: AHB-AP ROM base: 0xE00FF000
T5900 005:079.190   CPUID register: 0x412FC231. Implementer code: 0x41 (ARM)
T5900 005:079.199   Found Cortex-M3 r2p1, Little endian.
T5900 005:080.075   -- Max. mem block: 0x00010788
T5900 005:080.810   CPU_ReadMem(4 bytes @ 0xE000EDF0)
T5900 005:081.341   CPU_ReadMem(4 bytes @ 0xE0002000)
T5900 005:082.235   FPUnit: 6 code (BP) slots and 2 literal slots
T5900 005:082.239   CPU_ReadMem(4 bytes @ 0xE000EDFC)
T5900 005:083.069   CPU_WriteMem(4 bytes @ 0xE000EDFC)
T5900 005:083.734   CPU_ReadMem(4 bytes @ 0xE0001000)
T5900 005:084.340   CPU_WriteMem(4 bytes @ 0xE0001000)
T5900 005:085.028   CPU_ReadMem(4 bytes @ 0xE000ED88)
T5900 005:085.591   CPU_WriteMem(4 bytes @ 0xE000ED88)
T5900 005:086.231   CPU_ReadMem(4 bytes @ 0xE000ED88)
T5900 005:086.869   CPU_WriteMem(4 bytes @ 0xE000ED88)
T5900 005:087.598   CoreSight components:
T5900 005:087.605   ROMTbl[0] @ E00FF000
T5900 005:087.633   CPU_ReadMem(64 bytes @ 0xE00FF000)
T5900 005:088.749   CPU_ReadMem(32 bytes @ 0xE000EFE0)
T5900 005:089.708   [0][0]: E000E000 CID B105E00D PID 000BB000 SCS
T5900 005:089.713   CPU_ReadMem(32 bytes @ 0xE0001FE0)
T5900 005:090.601   [0][1]: E0001000 CID B105E00D PID 003BB002 DWT
T5900 005:090.606   CPU_ReadMem(32 bytes @ 0xE0002FE0)
T5900 005:091.502   [0][2]: E0002000 CID B105E00D PID 002BB003 FPB
T5900 005:091.510   CPU_ReadMem(32 bytes @ 0xE0000FE0)
T5900 005:092.431   [0][3]: E0000000 CID B105E00D PID 003BB001 ITM
T5900 005:092.437   CPU_ReadMem(32 bytes @ 0xE0040FE0)
T5900 005:093.306   [0][4]: E0040000 CID B105900D PID 003BB923 TPIU-Lite
T5900 005:093.797 - 37.331ms returns 0x2BA01477
T5900 005:093.818 JLINK_GetDLLVersion()
T5900 005:093.822 - 0.004ms returns 79214
T5900 005:093.863 JLINK_CORE_GetFound()
T5900 005:093.871 - 0.007ms returns 0x30000FF
T5900 005:093.881 JLINK_GetDebugInfo(0x100 = JLINKARM_ROM_TABLE_ADDR_INDEX)
T5900 005:093.885   Value=0xE00FF000
T5900 005:093.892 - 0.011ms returns 0
T5900 005:093.903 JLINK_GetDebugInfo(0x100 = JLINKARM_ROM_TABLE_ADDR_INDEX)
T5900 005:093.907   Value=0xE00FF000
T5900 005:093.913 - 0.010ms returns 0
T5900 005:093.917 JLINK_GetDebugInfo(0x101 = JLINKARM_DEBUG_INFO_ETM_ADDR_INDEX)
T5900 005:093.921   Value=0x00000000
T5900 005:093.927 - 0.009ms returns 0
T5900 005:093.934 JLINK_ReadMemEx(0xE0041FF0, 0x10 Bytes, Flags = 0x02000004)
T5900 005:093.950   CPU_ReadMem(16 bytes @ 0xE0041FF0)
T5900 005:094.648   Data:  00 00 00 00 00 00 00 00 00 00 00 00 00 00 00 00
T5900 005:094.655 - 0.721ms returns 16 (0x10)
T5900 005:094.661 JLINK_GetDebugInfo(0x102 = JLINKARM_DEBUG_INFO_MTB_ADDR_INDEX)
T5900 005:094.665   Value=0x00000000
T5900 005:094.671 - 0.010ms returns 0
T5900 005:094.676 JLINK_GetDebugInfo(0x103 = JLINKARM_DEBUG_INFO_TPIU_ADDR_INDEX)
T5900 005:094.680   Value=0xE0040000
T5900 005:094.685 - 0.009ms returns 0
T5900 005:094.690 JLINK_GetDebugInfo(0x104 = JLINKARM_DEBUG_INFO_ITM_ADDR_INDEX)
T5900 005:094.694   Value=0xE0000000
T5900 005:094.700 - 0.009ms returns 0
T5900 005:094.705 JLINK_GetDebugInfo(0x105 = JLINKARM_DEBUG_INFO_DWT_ADDR_INDEX)
T5900 005:094.709   Value=0xE0001000
T5900 005:094.715 - 0.009ms returns 0
T5900 005:094.719 JLINK_GetDebugInfo(0x106 = JLINKARM_DEBUG_INFO_FPB_ADDR_INDEX)
T5900 005:094.723   Value=0xE0002000
T5900 005:094.729 - 0.009ms returns 0
T5900 005:094.734 JLINK_GetDebugInfo(0x107 = JLINKARM_DEBUG_INFO_NVIC_ADDR_INDEX)
T5900 005:094.738   Value=0xE000E000
T5900 005:094.744 - 0.009ms returns 0
T5900 005:094.749 JLINK_GetDebugInfo(0x10C = JLINKARM_DEBUG_INFO_DBG_ADDR_INDEX)
T5900 005:094.753   Value=0xE000EDF0
T5900 005:094.758 - 0.009ms returns 0
T5900 005:094.763 JLINK_GetDebugInfo(0x01 = Unknown)
T5900 005:094.768   Value=0x00000000
T5900 005:094.778 - 0.014ms returns 0
T5900 005:094.784 JLINK_ReadMemU32(0xE000ED00, 0x1 Items)
T5900 005:094.791   CPU_ReadMem(4 bytes @ 0xE000ED00)
T5900 005:095.480   Data:  31 C2 2F 41
T5900 005:095.487   Debug reg: CPUID
T5900 005:095.492 - 0.708ms returns 1 (0x1)
T5900 005:095.498 JLINK_GetDebugInfo(0x10F = JLINKARM_DEBUG_INFO_HAS_CORTEX_M_SECURITY_EXT_INDEX)
T5900 005:095.502   Value=0x00000000
T5900 005:095.508 - 0.009ms returns 0
T5900 005:095.513 JLINK_HasError()
T5900 005:095.519 JLINK_SetResetType(JLINKARM_CM3_RESET_TYPE_NORMAL)
T5900 005:095.524 - 0.004ms returns JLINKARM_CM3_RESET_TYPE_NORMAL
T5900 005:095.532 JLINK_Reset()
T5900 005:095.540   CPU is running
T5900 005:095.547   CPU_WriteMem(4 bytes @ 0xE000EDF0)
T5900 005:096.198   CPU is running
T5900 005:096.238   CPU_WriteMem(4 bytes @ 0xE000EDFC)
T5900 005:096.842   Reset: Halt core after reset via DEMCR.VC_CORERESET.
T5900 005:097.783   Reset: Reset device via AIRCR.SYSRESETREQ.
T5900 005:097.790   CPU is running
T5900 005:097.801   CPU_WriteMem(4 bytes @ 0xE000ED0C)
T5900 005:153.425   CPU_ReadMem(4 bytes @ 0xE000EDF0)
T5900 005:154.276   CPU_ReadMem(4 bytes @ 0xE000EDF0)
T5900 005:158.823   CPU_WriteMem(4 bytes @ 0xE000EDFC)
T5900 005:165.213   CPU_ReadMem(4 bytes @ 0xE000EDF0)
T5900 005:169.762   CPU_WriteMem(4 bytes @ 0xE0002000)
T5900 005:170.391   CPU_ReadMem(4 bytes @ 0xE000EDFC)
T5900 005:171.128   CPU_ReadMem(4 bytes @ 0xE0001000)
T5900 005:171.806 - 76.274ms
T5900 005:171.824 JLINK_HasError()
T5900 005:171.877 JLINK_ReadReg(R15 (PC))
T5900 005:171.883 - 0.006ms returns 0x08000188
T5900 005:171.887 JLINK_ReadReg(XPSR)
T5900 005:171.890 - 0.003ms returns 0x01000000
T5900 005:171.895 JLINK_Halt()
T5900 005:171.898 - 0.002ms returns 0x00
T5900 005:171.902 JLINK_ReadMemU32(0xE000EDF0, 0x1 Items)
T5900 005:171.909   CPU_ReadMem(4 bytes @ 0xE000EDF0)
T5900 005:172.514   Data:  03 00 03 00
T5900 005:172.524   Debug reg: DHCSR
T5900 005:172.528 - 0.626ms returns 1 (0x1)
T5900 005:172.544 JLINK_WriteU32_64(0xE000EDF0, 0xA05F0003)
T5900 005:172.549   Debug reg: DHCSR
T5900 005:172.735   CPU_WriteMem(4 bytes @ 0xE000EDF0)
T5900 005:173.514 - 0.969ms returns 0 (0x00000000)
T5900 005:173.519 JLINK_WriteU32_64(0xE000EDFC, 0x01000000)
T5900 005:173.522   Debug reg: DEMCR
T5900 005:173.528   CPU_WriteMem(4 bytes @ 0xE000EDFC)
T5900 005:174.326 - 0.806ms returns 0 (0x00000000)
T5900 005:174.366 JLINK_GetHWStatus(...)
T5900 005:174.738 - 0.371ms returns 0
T5900 005:174.768 JLINK_GetNumBPUnits(Type = 0xFFFFFF00)
T5900 005:174.772 - 0.003ms returns 0x06
T5900 005:174.775 JLINK_GetNumBPUnits(Type = 0xF0)
T5900 005:174.778 - 0.002ms returns 0x2000
T5900 005:174.782 JLINK_GetNumWPUnits()
T5900 005:174.785 - 0.002ms returns 4
T5900 005:174.794 JLINK_GetSpeed()
T5900 005:174.797 - 0.002ms returns 4000
T5900 005:174.803 JLINK_ReadMemU32(0xE000E004, 0x1 Items)
T5900 005:174.810   CPU_ReadMem(4 bytes @ 0xE000E004)
T5900 005:175.378   Data:  02 00 00 00
T5900 005:175.393 - 0.589ms returns 1 (0x1)
T5900 005:175.397 JLINK_ReadMemU32(0xE000E004, 0x1 Items)
T5900 005:175.404   CPU_ReadMem(4 bytes @ 0xE000E004)
T5900 005:175.981   Data:  02 00 00 00
T5900 005:175.985 - 0.588ms returns 1 (0x1)
T5900 005:175.990 JLINK_WriteMemEx(0xE0001000, 0x0000001C Bytes, Flags = 0x02000004)
T5900 005:175.993   Data:  01 00 00 00 00 00 00 00 00 00 00 00 00 00 00 00 ...
T5900 005:176.029   CPU_WriteMem(28 bytes @ 0xE0001000)
T5900 005:176.958 - 0.965ms returns 0x1C
T5900 005:176.976 JLINK_HasError()
T5900 005:176.980 JLINK_ReadReg(R15 (PC))
T5900 005:176.984 - 0.004ms returns 0x08000188
T5900 005:176.987 JLINK_ReadReg(XPSR)
T5900 005:176.990 - 0.002ms returns 0x01000000
T5900 005:254.695 JLINK_HasError()
T5900 005:254.731 JLINK_SetResetType(JLINKARM_CM3_RESET_TYPE_NORMAL)
T5900 005:254.740 - 0.008ms returns JLINKARM_CM3_RESET_TYPE_NORMAL
T5900 005:254.748 JLINK_Reset()
T5900 005:254.774   CPU_WriteMem(4 bytes @ 0xE000EDF0)
T5900 005:255.497   CPU_WriteMem(4 bytes @ 0xE000EDFC)
T5900 005:256.270   Reset: Halt core after reset via DEMCR.VC_CORERESET.
T5900 005:257.339   Reset: Reset device via AIRCR.SYSRESETREQ.
T5900 005:257.348   CPU_WriteMem(4 bytes @ 0xE000ED0C)
T5900 005:311.949   CPU_ReadMem(4 bytes @ 0xE000EDF0)
T5900 005:312.562   CPU_ReadMem(4 bytes @ 0xE000EDF0)
T5900 005:313.221   CPU_WriteMem(4 bytes @ 0xE000EDFC)
T5900 005:319.338   CPU_ReadMem(4 bytes @ 0xE000EDF0)
T5900 005:324.000   CPU_WriteMem(4 bytes @ 0xE0002000)
T5900 005:324.895   CPU_ReadMem(4 bytes @ 0xE000EDFC)
T5900 005:325.693   CPU_ReadMem(4 bytes @ 0xE0001000)
T5900 005:326.315 - 71.565ms
T5900 005:326.432 JLINK_HasError()
T5900 005:326.446 JLINK_ReadReg(R15 (PC))
T5900 005:326.469 - 0.022ms returns 0x08000188
T5900 005:326.480 JLINK_ReadReg(XPSR)
T5900 005:326.491 - 0.011ms returns 0x01000000
T5900 005:397.648 JLINK_ReadMemEx(0x08000188, 0x3C Bytes, Flags = 0x02000000)
T5900 005:397.675   CPU_ReadMem(128 bytes @ 0x08000180)
T5900 005:399.223    -- Updating C cache (128 bytes @ 0x08000180)
T5900 005:399.233    -- Read from C cache (60 bytes @ 0x08000188)
T5900 005:399.238   Data:  09 48 80 47 09 48 00 47 FE E7 FE E7 FE E7 FE E7 ...
T5900 005:399.243 - 1.594ms returns 60 (0x3C)
T5900 005:420.009 JLINK_ReadMemEx(0x40010C00, 0xC Bytes, Flags = 0x02000004)
T5900 005:420.036   CPU_ReadMem(12 bytes @ 0x40010C00)
T5900 005:420.875   Data:  44 44 44 44 44 44 44 44 00 00 00 00
T5900 005:420.917 - 0.908ms returns 12 (0xC)
T5900 005:420.930 JLINK_ReadMemEx(0x40010C00, 0x4 Bytes, Flags = 0x02000004)
T5900 005:420.947   CPU_ReadMem(4 bytes @ 0x40010C00)
T5900 005:421.593   Data:  44 44 44 44
T5900 005:421.597 - 0.667ms returns 4 (0x4)
T5900 005:421.602 JLINK_ReadMemEx(0x40010C04, 0x4 Bytes, Flags = 0x02000004)
T5900 005:421.605   CPU_ReadMem(4 bytes @ 0x40010C04)
T5900 005:422.338   Data:  44 44 44 44
T5900 005:422.343 - 0.741ms returns 4 (0x4)
T5900 005:422.346 JLINK_ReadMemEx(0x40010C08, 0x4 Bytes, Flags = 0x02000004)
T5900 005:422.350   CPU_ReadMem(4 bytes @ 0x40010C08)
T5900 005:422.967   Data:  00 00 00 00
T5900 005:422.982 - 0.635ms returns 4 (0x4)
T5900 005:422.986 JLINK_ReadMemEx(0x40010C0C, 0x4 Bytes, Flags = 0x02000004)
T5900 005:422.990   CPU_ReadMem(4 bytes @ 0x40010C0C)
T5900 005:423.751   Data:  00 00 00 00
T5900 005:423.755 - 0.769ms returns 4 (0x4)
T5900 005:423.759 JLINK_ReadMemEx(0x40010C0C, 0x4 Bytes, Flags = 0x02000004)
T5900 005:423.763   CPU_ReadMem(4 bytes @ 0x40010C0C)
T5900 005:424.399   Data:  00 00 00 00
T5900 005:424.406 - 0.646ms returns 4 (0x4)
T5900 005:424.412 JLINK_ReadMemEx(0x40010C18, 0x4 Bytes, Flags = 0x02000004)
T5900 005:424.417   CPU_ReadMem(4 bytes @ 0x40010C18)
T5900 005:424.983   Data:  00 00 00 00
T5900 005:424.990 - 0.578ms returns 4 (0x4)
T5900 005:424.996 JLINK_ReadMemEx(0x40010C18, 0x4 Bytes, Flags = 0x02000004)
T5900 005:425.001   CPU_ReadMem(4 bytes @ 0x40010C18)
T5900 005:425.594   Data:  00 00 00 00
T5900 005:425.606 - 0.610ms returns 4 (0x4)
T5900 005:447.170 JLINK_ReadMemEx(0x40005400, 0x20 Bytes, Flags = 0x02000004)
T5900 005:447.198   CPU_ReadMem(32 bytes @ 0x40005400)
T5900 005:448.044   Data:  00 00 00 00 00 00 00 00 00 00 00 00 00 00 00 00 ...
T5900 005:448.050 - 0.880ms returns 32 (0x20)
T5900 005:448.056 JLINK_ReadMemEx(0x40005400, 0x4 Bytes, Flags = 0x02000004)
T5900 005:448.061   CPU_ReadMem(4 bytes @ 0x40005400)
T5900 005:448.611   Data:  00 00 00 00
T5900 005:448.615 - 0.558ms returns 4 (0x4)
T5900 005:448.619 JLINK_ReadMemEx(0x40005404, 0x4 Bytes, Flags = 0x02000004)
T5900 005:448.622   CPU_ReadMem(4 bytes @ 0x40005404)
T5900 005:449.346   Data:  00 00 00 00
T5900 005:449.386 - 0.767ms returns 4 (0x4)
T5900 005:449.390 JLINK_ReadMemEx(0x40005408, 0x4 Bytes, Flags = 0x02000004)
T5900 005:449.393   CPU_ReadMem(4 bytes @ 0x40005408)
T5900 005:449.982   Data:  00 00 00 00
T5900 005:449.993 - 0.602ms returns 4 (0x4)
T5900 005:450.001 JLINK_ReadMemEx(0x4000540C, 0x4 Bytes, Flags = 0x02000004)
T5900 005:450.012   CPU_ReadMem(4 bytes @ 0x4000540C)
T5900 005:450.557   Data:  00 00 00 00
T5900 005:450.561 - 0.560ms returns 4 (0x4)
T5900 005:450.565 JLINK_ReadMemEx(0x40005410, 0x4 Bytes, Flags = 0x02000004)
T5900 005:450.569   CPU_ReadMem(4 bytes @ 0x40005410)
T5900 005:451.149   Data:  00 00 00 00
T5900 005:451.179 - 0.613ms returns 4 (0x4)
T5900 005:451.182 JLINK_ReadMemEx(0x40005414, 0x4 Bytes, Flags = 0x02000004)
T5900 005:451.185   CPU_ReadMem(4 bytes @ 0x40005414)
T5900 005:451.822   Data:  00 00 00 00
T5900 005:451.865 - 0.682ms returns 4 (0x4)
T5900 005:451.876 JLINK_ReadMemEx(0x40005418, 0x4 Bytes, Flags = 0x02000004)
T5900 005:451.888   CPU_ReadMem(4 bytes @ 0x40005418)
T5900 005:452.437   Data:  00 00 00 00
T5900 005:452.446 - 0.570ms returns 4 (0x4)
T5900 005:452.492 JLINK_ReadMemEx(0x4000541C, 0x4 Bytes, Flags = 0x02000004)
T5900 005:452.500   CPU_ReadMem(4 bytes @ 0x4000541C)
T5900 005:453.089   Data:  00 00 00 00
T5900 005:453.109 - 0.617ms returns 4 (0x4)
T5900 005:453.114 JLINK_ReadMemEx(0x40005420, 0x4 Bytes, Flags = 0x02000004)
T5900 005:453.118   CPU_ReadMem(4 bytes @ 0x40005420)
T5900 005:453.705   Data:  00 00 00 00
T5900 005:453.712 - 0.598ms returns 4 (0x4)
T5900 005:453.716 JLINK_ReadMemEx(0x40005420, 0x4 Bytes, Flags = 0x02000004)
T5900 005:453.719   CPU_ReadMem(4 bytes @ 0x40005420)
T5900 005:454.315   Data:  00 00 00 00
T5900 005:454.319 - 0.603ms returns 4 (0x4)
T1638 006:212.502 JLINK_ReadMemEx(0x08000188, 0x2 Bytes, Flags = 0x02000000)
T1638 006:212.528    -- Read from C cache (2 bytes @ 0x08000188)
T1638 006:212.533   Data:  09 48
T1638 006:212.538 - 0.036ms returns 2 (0x2)
T1638 006:212.547 JLINK_HasError()
T1638 006:212.557 JLINK_SetBPEx(Addr = 0x08003784, Type = 0xFFFFFFF2)
T1638 006:212.563 - 0.007ms returns 0x00000001
T1638 006:212.567 JLINK_HasError()
T1638 006:212.570 JLINK_HasError()
T1638 006:212.575 JLINK_Go()
T1638 006:213.227   CPU_WriteMem(4 bytes @ 0xE0002000)
T1638 006:213.848   CPU_ReadMem(4 bytes @ 0xE0001000)
T1638 006:214.417   CPU_WriteMem(4 bytes @ 0xE0002008)
T1638 006:214.422   CPU_WriteMem(4 bytes @ 0xE000200C)
T1638 006:214.427   CPU_WriteMem(4 bytes @ 0xE0002010)
T1638 006:214.432   CPU_WriteMem(4 bytes @ 0xE0002014)
T1638 006:214.436   CPU_WriteMem(4 bytes @ 0xE0002018)
T1638 006:214.440   CPU_WriteMem(4 bytes @ 0xE000201C)
T1638 006:216.274   CPU_WriteMem(4 bytes @ 0xE0001004)
T1638 006:218.066   Memory map 'after startup completion point' is active
T1638 006:218.085 - 5.510ms
T1638 006:318.812 JLINK_HasError()
T1638 006:318.845 JLINK_IsHalted()
T1638 006:322.740 - 3.893ms returns TRUE
T1638 006:322.751 JLINK_HasError()
T1638 006:322.760 JLINK_Halt()
T1638 006:322.768 - 0.007ms returns 0x00
T1638 006:322.776 JLINK_IsHalted()
T1638 006:322.783 - 0.007ms returns TRUE
T1638 006:322.792 JLINK_IsHalted()
T1638 006:322.798 - 0.006ms returns TRUE
T1638 006:322.806 JLINK_IsHalted()
T1638 006:322.813 - 0.006ms returns TRUE
T1638 006:322.822 JLINK_HasError()
T1638 006:322.831 JLINK_ReadReg(R15 (PC))
T1638 006:322.841 - 0.010ms returns 0x08003784
T1638 006:322.850 JLINK_ReadReg(XPSR)
T1638 006:322.858 - 0.007ms returns 0x21000000
T1638 006:322.868 JLINK_HasError()
T1638 006:322.879 JLINK_ClrBPEx(BPHandle = 0x00000001)
T1638 006:322.887 - 0.008ms returns 0x00
T1638 006:322.896 JLINK_HasError()
T1638 006:322.904 JLINK_HasError()
T1638 006:322.914 JLINK_ReadMemU32(0xE000ED30, 0x1 Items)
T1638 006:322.926   CPU_ReadMem(4 bytes @ 0xE000ED30)
T1638 006:323.529   Data:  02 00 00 00
T1638 006:323.538 - 0.625ms returns 1 (0x1)
T1638 006:323.545 JLINK_ReadMemU32(0xE0001028, 0x1 Items)
T1638 006:323.553   CPU_ReadMem(4 bytes @ 0xE0001028)
T1638 006:324.215   Data:  00 00 00 00
T1638 006:324.227   Debug reg: DWT_FUNC[0]
T1638 006:324.235 - 0.689ms returns 1 (0x1)
T1638 006:324.243 JLINK_ReadMemU32(0xE0001038, 0x1 Items)
T1638 006:324.252   CPU_ReadMem(4 bytes @ 0xE0001038)
T1638 006:324.838   Data:  00 02 00 00
T1638 006:324.847   Debug reg: DWT_FUNC[1]
T1638 006:324.854 - 0.611ms returns 1 (0x1)
T1638 006:324.862 JLINK_ReadMemU32(0xE0001048, 0x1 Items)
T1638 006:324.868   CPU_ReadMem(4 bytes @ 0xE0001048)
T1638 006:325.513   Data:  00 00 00 00
T1638 006:325.522   Debug reg: DWT_FUNC[2]
T1638 006:325.530 - 0.668ms returns 1 (0x1)
T1638 006:325.537 JLINK_ReadMemU32(0xE0001058, 0x1 Items)
T1638 006:325.544   CPU_ReadMem(4 bytes @ 0xE0001058)
T1638 006:326.216   Data:  00 00 00 00
T1638 006:326.224   Debug reg: DWT_FUNC[3]
T1638 006:326.232 - 0.695ms returns 1 (0x1)
T1638 006:326.270 JLINK_HasError()
T1638 006:326.278 JLINK_ReadReg(R0)
T1638 006:326.285 - 0.007ms returns 0x20000480
T1638 006:326.292 JLINK_ReadReg(R1)
T1638 006:326.298 - 0.006ms returns 0x20000A80
T1638 006:326.305 JLINK_ReadReg(R2)
T1638 006:326.311 - 0.005ms returns 0x20000A80
T1638 006:326.322 JLINK_ReadReg(R3)
T1638 006:326.331 - 0.008ms returns 0x20000A80
T1638 006:326.337 JLINK_ReadReg(R4)
T1638 006:326.343 - 0.005ms returns 0x00000000
T1638 006:326.350 JLINK_ReadReg(R5)
T1638 006:326.356 - 0.005ms returns 0x20000420
T1638 006:326.363 JLINK_ReadReg(R6)
T1638 006:326.369 - 0.005ms returns 0x00000000
T1638 006:326.375 JLINK_ReadReg(R7)
T1638 006:326.381 - 0.005ms returns 0x00000000
T1638 006:326.388 JLINK_ReadReg(R8)
T1638 006:326.394 - 0.006ms returns 0x00000000
T1638 006:326.401 JLINK_ReadReg(R9)
T1638 006:326.407 - 0.005ms returns 0x00000000
T1638 006:326.413 JLINK_ReadReg(R10)
T1638 006:326.420 - 0.006ms returns 0x08003840
T1638 006:326.426 JLINK_ReadReg(R11)
T1638 006:326.432 - 0.005ms returns 0x00000000
T1638 006:326.439 JLINK_ReadReg(R12)
T1638 006:326.445 - 0.005ms returns 0x20000460
T1638 006:326.451 JLINK_ReadReg(R13 (SP))
T1638 006:326.458 - 0.006ms returns 0x20000E80
T1638 006:326.464 JLINK_ReadReg(R14)
T1638 006:326.470 - 0.006ms returns 0x08000177
T1638 006:326.477 JLINK_ReadReg(R15 (PC))
T1638 006:326.483 - 0.006ms returns 0x08003784
T1638 006:326.490 JLINK_ReadReg(XPSR)
T1638 006:326.496 - 0.006ms returns 0x21000000
T1638 006:326.503 JLINK_ReadReg(MSP)
T1638 006:326.509 - 0.005ms returns 0x20000E80
T1638 006:326.515 JLINK_ReadReg(PSP)
T1638 006:326.521 - 0.005ms returns 0x00000000
T1638 006:326.528 JLINK_ReadReg(CFBP)
T1638 006:326.534 - 0.005ms returns 0x00000000
T5900 006:331.257 JLINK_HasError()
T5900 006:331.275 JLINK_ReadMemU32(0xE0001004, 0x1 Items)
T5900 006:331.292   CPU_ReadMem(4 bytes @ 0xE0001004)
T5900 006:331.974   Data:  F7 07 00 00
T5900 006:331.989   Debug reg: DWT_CYCCNT
T5900 006:331.996 - 0.720ms returns 1 (0x1)
T5900 006:332.089 JLINK_ReadMemEx(0x40010C00, 0xC Bytes, Flags = 0x02000004)
T5900 006:332.099   CPU_ReadMem(12 bytes @ 0x40010C00)
T5900 006:332.817   Data:  44 44 44 44 44 44 44 44 00 00 00 00
T5900 006:332.830 - 0.740ms returns 12 (0xC)
T5900 006:332.840 JLINK_ReadMemEx(0x40010C00, 0x4 Bytes, Flags = 0x02000004)
T5900 006:332.850   CPU_ReadMem(4 bytes @ 0x40010C00)
T5900 006:333.422   Data:  44 44 44 44
T5900 006:333.437 - 0.596ms returns 4 (0x4)
T5900 006:333.445 JLINK_ReadMemEx(0x40010C04, 0x4 Bytes, Flags = 0x02000004)
T5900 006:333.453   CPU_ReadMem(4 bytes @ 0x40010C04)
T5900 006:334.062   Data:  44 44 44 44
T5900 006:334.069 - 0.623ms returns 4 (0x4)
T5900 006:334.075 JLINK_ReadMemEx(0x40010C08, 0x4 Bytes, Flags = 0x02000004)
T5900 006:334.080   CPU_ReadMem(4 bytes @ 0x40010C08)
T5900 006:334.645   Data:  00 00 00 00
T5900 006:334.650 - 0.575ms returns 4 (0x4)
T5900 006:334.655 JLINK_ReadMemEx(0x40010C0C, 0x4 Bytes, Flags = 0x02000004)
T5900 006:334.660   CPU_ReadMem(4 bytes @ 0x40010C0C)
T5900 006:335.219   Data:  00 00 00 00
T5900 006:335.225 - 0.569ms returns 4 (0x4)
T5900 006:335.230 JLINK_ReadMemEx(0x40010C0C, 0x4 Bytes, Flags = 0x02000004)
T5900 006:335.235   CPU_ReadMem(4 bytes @ 0x40010C0C)
T5900 006:335.835   Data:  00 00 00 00
T5900 006:335.842 - 0.611ms returns 4 (0x4)
T5900 006:335.848 JLINK_ReadMemEx(0x40010C18, 0x4 Bytes, Flags = 0x02000004)
T5900 006:335.853   CPU_ReadMem(4 bytes @ 0x40010C18)
T5900 006:336.454   Data:  00 00 00 00
T5900 006:336.461 - 0.613ms returns 4 (0x4)
T5900 006:336.467 JLINK_ReadMemEx(0x40010C18, 0x4 Bytes, Flags = 0x02000004)
T5900 006:336.472   CPU_ReadMem(4 bytes @ 0x40010C18)
T5900 006:337.064   Data:  00 00 00 00
T5900 006:337.070 - 0.603ms returns 4 (0x4)
T5900 006:337.323 JLINK_ReadMemEx(0x40005400, 0x20 Bytes, Flags = 0x02000004)
T5900 006:337.331   CPU_ReadMem(32 bytes @ 0x40005400)
T5900 006:338.211   Data:  00 00 00 00 00 00 00 00 00 00 00 00 00 00 00 00 ...
T5900 006:338.221 - 0.898ms returns 32 (0x20)
T5900 006:338.229 JLINK_ReadMemEx(0x40005400, 0x4 Bytes, Flags = 0x02000004)
T5900 006:338.235   CPU_ReadMem(4 bytes @ 0x40005400)
T5900 006:339.058   Data:  00 00 00 00
T5900 006:339.074 - 0.845ms returns 4 (0x4)
T5900 006:339.081 JLINK_ReadMemEx(0x40005404, 0x4 Bytes, Flags = 0x02000004)
T5900 006:339.088   CPU_ReadMem(4 bytes @ 0x40005404)
T5900 006:339.692   Data:  00 00 00 00
T5900 006:339.700 - 0.619ms returns 4 (0x4)
T5900 006:339.708 JLINK_ReadMemEx(0x40005408, 0x4 Bytes, Flags = 0x02000004)
T5900 006:339.715   CPU_ReadMem(4 bytes @ 0x40005408)
T5900 006:340.338   Data:  00 00 00 00
T5900 006:340.347 - 0.639ms returns 4 (0x4)
T5900 006:340.355 JLINK_ReadMemEx(0x4000540C, 0x4 Bytes, Flags = 0x02000004)
T5900 006:340.362   CPU_ReadMem(4 bytes @ 0x4000540C)
T5900 006:340.984   Data:  00 00 00 00
T5900 006:340.993 - 0.637ms returns 4 (0x4)
T5900 006:341.001 JLINK_ReadMemEx(0x40005410, 0x4 Bytes, Flags = 0x02000004)
T5900 006:341.008   CPU_ReadMem(4 bytes @ 0x40005410)
T5900 006:341.714   Data:  00 00 00 00
T5900 006:341.735 - 0.733ms returns 4 (0x4)
T5900 006:341.749 JLINK_ReadMemEx(0x40005414, 0x4 Bytes, Flags = 0x02000004)
T5900 006:341.765   CPU_ReadMem(4 bytes @ 0x40005414)
T5900 006:342.397   Data:  00 00 00 00
T5900 006:342.415 - 0.665ms returns 4 (0x4)
T5900 006:342.428 JLINK_ReadMemEx(0x40005418, 0x4 Bytes, Flags = 0x02000004)
T5900 006:342.443   CPU_ReadMem(4 bytes @ 0x40005418)
T5900 006:343.324   Data:  00 00 00 00
T5900 006:343.347 - 0.918ms returns 4 (0x4)
T5900 006:343.361 JLINK_ReadMemEx(0x4000541C, 0x4 Bytes, Flags = 0x02000004)
T5900 006:343.376   CPU_ReadMem(4 bytes @ 0x4000541C)
T5900 006:344.002   Data:  00 00 00 00
T5900 006:344.027 - 0.666ms returns 4 (0x4)
T5900 006:344.041 JLINK_ReadMemEx(0x40005420, 0x4 Bytes, Flags = 0x02000004)
T5900 006:344.054   CPU_ReadMem(4 bytes @ 0x40005420)
T5900 006:344.669   Data:  00 00 00 00
T5900 006:344.676 - 0.635ms returns 4 (0x4)
T5900 006:344.684 JLINK_ReadMemEx(0x40005420, 0x4 Bytes, Flags = 0x02000004)
T5900 006:344.691   CPU_ReadMem(4 bytes @ 0x40005420)
T5900 006:345.305   Data:  00 00 00 00
T5900 006:345.312 - 0.628ms returns 4 (0x4)
T1638 014:038.514 JLINK_ReadMemEx(0x08003784, 0x2 Bytes, Flags = 0x02000000)
T1638 014:038.547   CPU_ReadMem(64 bytes @ 0x08003780)
T1638 014:039.686    -- Updating C cache (64 bytes @ 0x08003780)
T1638 014:039.698    -- Read from C cache (2 bytes @ 0x08003784)
T1638 014:039.703   Data:  FD F7
T1638 014:039.707 - 1.193ms returns 2 (0x2)
T1638 014:039.714 JLINK_HasError()
T1638 014:039.718 JLINK_SetBPEx(Addr = 0x080037BA, Type = 0xFFFFFFF2)
T1638 014:039.724 - 0.006ms returns 0x00000002
T1638 014:039.727 JLINK_HasError()
T1638 014:039.731 JLINK_HasError()
T1638 014:039.734 JLINK_Go()
T1638 014:040.463   CPU_WriteMem(4 bytes @ 0xE0002000)
T1638 014:041.112   CPU_ReadMem(4 bytes @ 0xE0001000)
T1638 014:041.810   CPU_WriteMem(4 bytes @ 0xE0002008)
T1638 014:043.179 - 3.441ms
T1638 014:143.509 JLINK_HasError()
T1638 014:143.591 JLINK_IsHalted()
T1638 014:144.642 - 1.049ms returns FALSE
T1638 014:244.771 JLINK_HasError()
T1638 014:244.840 JLINK_IsHalted()
T1638 014:245.859 - 1.017ms returns FALSE
T1638 014:346.064 JLINK_HasError()
T1638 014:346.144 JLINK_IsHalted()
T1638 014:347.187 - 1.039ms returns FALSE
T1638 014:447.346 JLINK_HasError()
T1638 014:447.413 JLINK_IsHalted()
T1638 014:448.361 - 0.945ms returns FALSE
T1638 014:548.491 JLINK_HasError()
T1638 014:548.555 JLINK_HasError()
T1638 014:548.578 JLINK_ReadMemU32(0xE0001004, 0x1 Items)
T1638 014:548.649   CPU_ReadMem(4 bytes @ 0xE0001004)
T1638 014:549.667   Data:  BD CE 71 01
T1638 014:549.731   Debug reg: DWT_CYCCNT
T1638 014:549.757 - 1.179ms returns 1 (0x1)
T5900 014:550.001 JLINK_ReadMemEx(0x40010C00, 0xC Bytes, Flags = 0x02000004)
T5900 014:550.084   CPU_ReadMem(12 bytes @ 0x40010C00)
T5900 014:551.101   Data:  44 44 44 FF 43 44 44 44 FF FF 00 00
T5900 014:551.136 - 1.134ms returns 12 (0xC)
T5900 014:551.168 JLINK_ReadMemEx(0x40010C00, 0x4 Bytes, Flags = 0x02000004)
T5900 014:551.197   CPU_ReadMem(4 bytes @ 0x40010C00)
T5900 014:552.236   Data:  44 44 44 FF
T5900 014:552.260 - 1.092ms returns 4 (0x4)
T5900 014:552.281 JLINK_ReadMemEx(0x40010C04, 0x4 Bytes, Flags = 0x02000004)
T5900 014:552.302   CPU_ReadMem(4 bytes @ 0x40010C04)
T5900 014:553.234   Data:  43 44 44 44
T5900 014:553.255 - 0.973ms returns 4 (0x4)
T5900 014:553.287 JLINK_ReadMemEx(0x40010C08, 0x4 Bytes, Flags = 0x02000004)
T5900 014:553.304   CPU_ReadMem(4 bytes @ 0x40010C08)
T5900 014:554.212   Data:  FF FF 00 00
T5900 014:554.231 - 0.943ms returns 4 (0x4)
T5900 014:554.248 JLINK_ReadMemEx(0x40010C0C, 0x4 Bytes, Flags = 0x02000004)
T5900 014:554.263   CPU_ReadMem(4 bytes @ 0x40010C0C)
T5900 014:555.006   Data:  00 01 00 00
T5900 014:555.027 - 0.778ms returns 4 (0x4)
T5900 014:555.044 JLINK_ReadMemEx(0x40010C0C, 0x4 Bytes, Flags = 0x02000004)
T5900 014:555.060   CPU_ReadMem(4 bytes @ 0x40010C0C)
T5900 014:555.728   Data:  00 01 00 00
T5900 014:555.749 - 0.705ms returns 4 (0x4)
T5900 014:555.768 JLINK_ReadMemEx(0x40010C18, 0x4 Bytes, Flags = 0x02000004)
T5900 014:555.785   CPU_ReadMem(4 bytes @ 0x40010C18)
T5900 014:556.498   Data:  00 00 00 00
T5900 014:556.523 - 0.755ms returns 4 (0x4)
T5900 014:556.543 JLINK_ReadMemEx(0x40010C18, 0x4 Bytes, Flags = 0x02000004)
T5900 014:556.584   CPU_ReadMem(4 bytes @ 0x40010C18)
T5900 014:557.248   Data:  00 00 00 00
T5900 014:557.271 - 0.728ms returns 4 (0x4)
T5900 014:564.052 JLINK_ReadMemEx(0x40005400, 0x20 Bytes, Flags = 0x02000004)
T5900 014:564.064   CPU_ReadMem(32 bytes @ 0x40005400)
T5900 014:564.884   Data:  01 00 00 00 18 00 00 00 00 00 00 00 00 00 00 00 ...
T5900 014:564.889 - 0.836ms returns 32 (0x20)
T5900 014:564.893 JLINK_ReadMemEx(0x40005400, 0x4 Bytes, Flags = 0x02000004)
T5900 014:564.898   CPU_ReadMem(4 bytes @ 0x40005400)
T5900 014:565.473   Data:  01 00 00 00
T5900 014:565.480 - 0.586ms returns 4 (0x4)
T5900 014:565.483 JLINK_ReadMemEx(0x40005404, 0x4 Bytes, Flags = 0x02000004)
T5900 014:565.487   CPU_ReadMem(4 bytes @ 0x40005404)
T5900 014:566.037   Data:  18 00 00 00
T5900 014:566.067 - 0.584ms returns 4 (0x4)
T5900 014:566.071 JLINK_ReadMemEx(0x40005408, 0x4 Bytes, Flags = 0x02000004)
T5900 014:566.074   CPU_ReadMem(4 bytes @ 0x40005408)
T5900 014:566.693   Data:  00 00 00 00
T5900 014:566.698 - 0.627ms returns 4 (0x4)
T5900 014:566.703 JLINK_ReadMemEx(0x4000540C, 0x4 Bytes, Flags = 0x02000004)
T5900 014:566.708   CPU_ReadMem(4 bytes @ 0x4000540C)
T5900 014:567.362   Data:  00 00 00 00
T5900 014:567.380 - 0.677ms returns 4 (0x4)
T5900 014:567.384 JLINK_ReadMemEx(0x40005410, 0x4 Bytes, Flags = 0x02000004)
T5900 014:567.387   CPU_ReadMem(4 bytes @ 0x40005410)
T5900 014:567.969   Data:  00 00 00 00
T5900 014:567.979 - 0.595ms returns 4 (0x4)
T5900 014:567.983 JLINK_ReadMemEx(0x40005414, 0x4 Bytes, Flags = 0x02000004)
T5900 014:567.986   CPU_ReadMem(4 bytes @ 0x40005414)
T5900 014:568.572   Data:  00 00 00 00
T5900 014:568.593 - 0.610ms returns 4 (0x4)
T5900 014:568.597 JLINK_ReadMemEx(0x40005418, 0x4 Bytes, Flags = 0x02000004)
T5900 014:568.600   CPU_ReadMem(4 bytes @ 0x40005418)
T5900 014:569.293   Data:  00 00 00 00
T5900 014:569.314 - 0.717ms returns 4 (0x4)
T5900 014:569.318 JLINK_ReadMemEx(0x4000541C, 0x4 Bytes, Flags = 0x02000004)
T5900 014:569.321   CPU_ReadMem(4 bytes @ 0x4000541C)
T5900 014:569.898   Data:  78 00 00 00
T5900 014:569.925 - 0.607ms returns 4 (0x4)
T5900 014:569.929 JLINK_ReadMemEx(0x40005420, 0x4 Bytes, Flags = 0x02000004)
T5900 014:569.932   CPU_ReadMem(4 bytes @ 0x40005420)
T5900 014:570.551   Data:  19 00 00 00
T5900 014:570.555 - 0.626ms returns 4 (0x4)
T5900 014:570.559 JLINK_ReadMemEx(0x40005420, 0x4 Bytes, Flags = 0x02000004)
T5900 014:570.562   CPU_ReadMem(4 bytes @ 0x40005420)
T5900 014:571.239   Data:  19 00 00 00
T5900 014:571.247 - 0.687ms returns 4 (0x4)
T1638 014:571.465 JLINK_IsHalted()
T1638 014:572.092 - 0.626ms returns FALSE
T1638 014:672.181 JLINK_HasError()
T1638 014:672.257 JLINK_IsHalted()
T1638 014:673.061 - 0.801ms returns FALSE
T1638 014:773.224 JLINK_HasError()
T1638 014:773.287 JLINK_IsHalted()
T1638 014:773.973 - 0.686ms returns FALSE
T1638 014:874.044 JLINK_HasError()
T1638 014:874.115 JLINK_IsHalted()
T1638 014:875.000 - 0.882ms returns FALSE
T1638 014:975.377 JLINK_HasError()
T1638 014:975.401 JLINK_IsHalted()
T1638 014:976.108 - 0.706ms returns FALSE
T1638 015:076.247 JLINK_HasError()
T1638 015:076.338 JLINK_HasError()
T1638 015:076.359 JLINK_ReadMemU32(0xE0001004, 0x1 Items)
T1638 015:076.422   Data:  BD CE 71 01
T1638 015:076.447   Debug reg: DWT_CYCCNT
T1638 015:076.469 - 0.110ms returns 1 (0x1)
T5900 015:076.704 JLINK_ReadMemEx(0x40010C00, 0xC Bytes, Flags = 0x02000004)
T5900 015:076.795   CPU_ReadMem(12 bytes @ 0x40010C00)
T5900 015:077.871   Data:  44 44 44 FF 43 44 44 44 FF FF 00 00
T5900 015:077.898 - 1.195ms returns 12 (0xC)
T5900 015:077.926 JLINK_ReadMemEx(0x40010C00, 0x4 Bytes, Flags = 0x02000004)
T5900 015:077.953   CPU_ReadMem(4 bytes @ 0x40010C00)
T5900 015:079.042   Data:  44 44 44 FF
T5900 015:079.081 - 1.155ms returns 4 (0x4)
T5900 015:079.118 JLINK_ReadMemEx(0x40010C04, 0x4 Bytes, Flags = 0x02000004)
T5900 015:079.162   CPU_ReadMem(4 bytes @ 0x40010C04)
T5900 015:080.006   Data:  43 44 44 44
T5900 015:080.032 - 0.914ms returns 4 (0x4)
T5900 015:080.057 JLINK_ReadMemEx(0x40010C08, 0x4 Bytes, Flags = 0x02000004)
T5900 015:080.079   CPU_ReadMem(4 bytes @ 0x40010C08)
T5900 015:080.830   Data:  FF FF 00 00
T5900 015:080.855 - 0.798ms returns 4 (0x4)
T5900 015:080.881 JLINK_ReadMemEx(0x40010C0C, 0x4 Bytes, Flags = 0x02000004)
T5900 015:080.901   CPU_ReadMem(4 bytes @ 0x40010C0C)
T5900 015:081.596   Data:  00 01 00 00
T5900 015:081.622 - 0.741ms returns 4 (0x4)
T5900 015:081.645 JLINK_ReadMemEx(0x40010C0C, 0x4 Bytes, Flags = 0x02000004)
T5900 015:081.665   CPU_ReadMem(4 bytes @ 0x40010C0C)
T5900 015:082.356   Data:  00 01 00 00
T5900 015:082.380 - 0.736ms returns 4 (0x4)
T5900 015:082.402 JLINK_ReadMemEx(0x40010C18, 0x4 Bytes, Flags = 0x02000004)
T5900 015:082.422   CPU_ReadMem(4 bytes @ 0x40010C18)
T5900 015:083.154   Data:  00 00 00 00
T5900 015:083.179 - 0.776ms returns 4 (0x4)
T5900 015:083.198 JLINK_ReadMemEx(0x40010C18, 0x4 Bytes, Flags = 0x02000004)
T5900 015:083.218   CPU_ReadMem(4 bytes @ 0x40010C18)
T5900 015:083.956   Data:  00 00 00 00
T5900 015:083.976 - 0.778ms returns 4 (0x4)
T5900 015:084.550 JLINK_ReadMemEx(0x40005400, 0x20 Bytes, Flags = 0x02000004)
T5900 015:084.572   CPU_ReadMem(32 bytes @ 0x40005400)
T5900 015:085.486   Data:  01 00 00 00 18 00 00 00 00 00 00 00 00 00 00 00 ...
T5900 015:085.506 - 0.956ms returns 32 (0x20)
T5900 015:085.523 JLINK_ReadMemEx(0x40005400, 0x4 Bytes, Flags = 0x02000004)
T5900 015:085.536   CPU_ReadMem(4 bytes @ 0x40005400)
T5900 015:086.229   Data:  01 00 00 00
T5900 015:086.245 - 0.722ms returns 4 (0x4)
T5900 015:086.259 JLINK_ReadMemEx(0x40005404, 0x4 Bytes, Flags = 0x02000004)
T5900 015:086.271   CPU_ReadMem(4 bytes @ 0x40005404)
T5900 015:086.938   Data:  18 00 00 00
T5900 015:086.980 - 0.721ms returns 4 (0x4)
T5900 015:086.993 JLINK_ReadMemEx(0x40005408, 0x4 Bytes, Flags = 0x02000004)
T5900 015:087.005   CPU_ReadMem(4 bytes @ 0x40005408)
T5900 015:087.600   Data:  00 00 00 00
T5900 015:087.614 - 0.621ms returns 4 (0x4)
T5900 015:087.627 JLINK_ReadMemEx(0x4000540C, 0x4 Bytes, Flags = 0x02000004)
T5900 015:087.639   CPU_ReadMem(4 bytes @ 0x4000540C)
T5900 015:088.325   Data:  00 00 00 00
T5900 015:088.339 - 0.712ms returns 4 (0x4)
T5900 015:088.352 JLINK_ReadMemEx(0x40005410, 0x4 Bytes, Flags = 0x02000004)
T5900 015:088.364   CPU_ReadMem(4 bytes @ 0x40005410)
T5900 015:088.974   Data:  00 00 00 00
T5900 015:088.989 - 0.636ms returns 4 (0x4)
T5900 015:089.002 JLINK_ReadMemEx(0x40005414, 0x4 Bytes, Flags = 0x02000004)
T5900 015:089.013   CPU_ReadMem(4 bytes @ 0x40005414)
T5900 015:089.640   Data:  00 00 00 00
T5900 015:089.655 - 0.653ms returns 4 (0x4)
T5900 015:089.667 JLINK_ReadMemEx(0x40005418, 0x4 Bytes, Flags = 0x02000004)
T5900 015:089.679   CPU_ReadMem(4 bytes @ 0x40005418)
T5900 015:090.301   Data:  00 00 00 00
T5900 015:090.315 - 0.647ms returns 4 (0x4)
T5900 015:090.327 JLINK_ReadMemEx(0x4000541C, 0x4 Bytes, Flags = 0x02000004)
T5900 015:090.339   CPU_ReadMem(4 bytes @ 0x4000541C)
T5900 015:090.951   Data:  78 00 00 00
T5900 015:090.966 - 0.638ms returns 4 (0x4)
T5900 015:090.979 JLINK_ReadMemEx(0x40005420, 0x4 Bytes, Flags = 0x02000004)
T5900 015:091.092   CPU_ReadMem(4 bytes @ 0x40005420)
T5900 015:091.868   Data:  19 00 00 00
T5900 015:091.887 - 0.907ms returns 4 (0x4)
T5900 015:091.904 JLINK_ReadMemEx(0x40005420, 0x4 Bytes, Flags = 0x02000004)
T5900 015:091.919   CPU_ReadMem(4 bytes @ 0x40005420)
T5900 015:092.589   Data:  19 00 00 00
T5900 015:092.615 - 0.710ms returns 4 (0x4)
T1638 015:093.092 JLINK_IsHalted()
T1638 015:093.700 - 0.607ms returns FALSE
T1638 015:194.395 JLINK_HasError()
T1638 015:194.433 JLINK_IsHalted()
T1638 015:195.109 - 0.675ms returns FALSE
T1638 015:296.112 JLINK_HasError()
T1638 015:296.163 JLINK_IsHalted()
T1638 015:297.071 - 0.906ms returns FALSE
T1638 015:398.064 JLINK_HasError()
T1638 015:398.095 JLINK_IsHalted()
T1638 015:398.739 - 0.642ms returns FALSE
T1638 015:499.089 JLINK_HasError()
T1638 015:499.152 JLINK_IsHalted()
T1638 015:500.354 - 1.200ms returns FALSE
T1638 015:600.928 JLINK_HasError()
T1638 015:600.985 JLINK_HasError()
T1638 015:601.006 JLINK_ReadMemU32(0xE0001004, 0x1 Items)
T1638 015:601.063   Data:  BD CE 71 01
T1638 015:601.087   Debug reg: DWT_CYCCNT
T1638 015:601.109 - 0.103ms returns 1 (0x1)
T5900 015:601.305 JLINK_ReadMemEx(0x40010C00, 0xC Bytes, Flags = 0x02000004)
T5900 015:601.390   CPU_ReadMem(12 bytes @ 0x40010C00)
T5900 015:602.503   Data:  44 44 44 FF 43 44 44 44 FF FF 00 00
T5900 015:602.533 - 1.229ms returns 12 (0xC)
T5900 015:602.564 JLINK_ReadMemEx(0x40010C00, 0x4 Bytes, Flags = 0x02000004)
T5900 015:602.593   CPU_ReadMem(4 bytes @ 0x40010C00)
T5900 015:603.501   Data:  44 44 44 FF
T5900 015:603.525 - 0.962ms returns 4 (0x4)
T5900 015:603.546 JLINK_ReadMemEx(0x40010C04, 0x4 Bytes, Flags = 0x02000004)
T5900 015:603.567   CPU_ReadMem(4 bytes @ 0x40010C04)
T5900 015:604.382   Data:  43 44 44 44
T5900 015:604.415 - 0.868ms returns 4 (0x4)
T5900 015:604.442 JLINK_ReadMemEx(0x40010C08, 0x4 Bytes, Flags = 0x02000004)
T5900 015:604.468   CPU_ReadMem(4 bytes @ 0x40010C08)
T5900 015:605.212   Data:  FF FF 00 00
T5900 015:605.238 - 0.796ms returns 4 (0x4)
T5900 015:605.264 JLINK_ReadMemEx(0x40010C0C, 0x4 Bytes, Flags = 0x02000004)
T5900 015:605.285   CPU_ReadMem(4 bytes @ 0x40010C0C)
T5900 015:605.996   Data:  00 01 00 00
T5900 015:606.021 - 0.757ms returns 4 (0x4)
T5900 015:606.041 JLINK_ReadMemEx(0x40010C0C, 0x4 Bytes, Flags = 0x02000004)
T5900 015:606.059   CPU_ReadMem(4 bytes @ 0x40010C0C)
T5900 015:606.755   Data:  00 01 00 00
T5900 015:606.777 - 0.736ms returns 4 (0x4)
T5900 015:606.798 JLINK_ReadMemEx(0x40010C18, 0x4 Bytes, Flags = 0x02000004)
T5900 015:606.816   CPU_ReadMem(4 bytes @ 0x40010C18)
T5900 015:607.563   Data:  00 00 00 00
T5900 015:607.622 - 0.822ms returns 4 (0x4)
T5900 015:607.657 JLINK_ReadMemEx(0x40010C18, 0x4 Bytes, Flags = 0x02000004)
T5900 015:607.695   CPU_ReadMem(4 bytes @ 0x40010C18)
T5900 015:608.408   Data:  00 00 00 00
T5900 015:608.433 - 0.776ms returns 4 (0x4)
T5900 015:609.013 JLINK_ReadMemEx(0x40005400, 0x20 Bytes, Flags = 0x02000004)
T5900 015:609.039   CPU_ReadMem(32 bytes @ 0x40005400)
T5900 015:609.948   Data:  01 00 00 00 18 00 00 00 00 00 00 00 00 00 00 00 ...
T5900 015:609.964 - 0.951ms returns 32 (0x20)
T5900 015:609.979 JLINK_ReadMemEx(0x40005400, 0x4 Bytes, Flags = 0x02000004)
T5900 015:609.993   CPU_ReadMem(4 bytes @ 0x40005400)
T5900 015:610.697   Data:  01 00 00 00
T5900 015:610.710 - 0.731ms returns 4 (0x4)
T5900 015:610.723 JLINK_ReadMemEx(0x40005404, 0x4 Bytes, Flags = 0x02000004)
T5900 015:610.734   CPU_ReadMem(4 bytes @ 0x40005404)
T5900 015:611.390   Data:  18 00 00 00
T5900 015:611.404 - 0.681ms returns 4 (0x4)
T5900 015:611.417 JLINK_ReadMemEx(0x40005408, 0x4 Bytes, Flags = 0x02000004)
T5900 015:611.429   CPU_ReadMem(4 bytes @ 0x40005408)
T5900 015:612.074   Data:  00 00 00 00
T5900 015:612.089 - 0.672ms returns 4 (0x4)
T5900 015:612.102 JLINK_ReadMemEx(0x4000540C, 0x4 Bytes, Flags = 0x02000004)
T5900 015:612.113   CPU_ReadMem(4 bytes @ 0x4000540C)
T5900 015:612.696   Data:  00 00 00 00
T5900 015:612.711 - 0.608ms returns 4 (0x4)
T5900 015:612.723 JLINK_ReadMemEx(0x40005410, 0x4 Bytes, Flags = 0x02000004)
T5900 015:612.746   CPU_ReadMem(4 bytes @ 0x40005410)
T5900 015:613.397   Data:  00 00 00 00
T5900 015:613.411 - 0.687ms returns 4 (0x4)
T5900 015:613.424 JLINK_ReadMemEx(0x40005414, 0x4 Bytes, Flags = 0x02000004)
T5900 015:613.435   CPU_ReadMem(4 bytes @ 0x40005414)
T5900 015:614.069   Data:  00 00 00 00
T5900 015:614.083 - 0.659ms returns 4 (0x4)
T5900 015:614.096 JLINK_ReadMemEx(0x40005418, 0x4 Bytes, Flags = 0x02000004)
T5900 015:614.108   CPU_ReadMem(4 bytes @ 0x40005418)
T5900 015:614.722   Data:  00 00 00 00
T5900 015:614.736 - 0.640ms returns 4 (0x4)
T5900 015:614.749 JLINK_ReadMemEx(0x4000541C, 0x4 Bytes, Flags = 0x02000004)
T5900 015:614.761   CPU_ReadMem(4 bytes @ 0x4000541C)
T5900 015:615.351   Data:  78 00 00 00
T5900 015:615.366 - 0.616ms returns 4 (0x4)
T5900 015:615.380 JLINK_ReadMemEx(0x40005420, 0x4 Bytes, Flags = 0x02000004)
T5900 015:615.392   CPU_ReadMem(4 bytes @ 0x40005420)
T5900 015:615.989   Data:  19 00 00 00
T5900 015:616.004 - 0.624ms returns 4 (0x4)
T5900 015:616.017 JLINK_ReadMemEx(0x40005420, 0x4 Bytes, Flags = 0x02000004)
T5900 015:616.029   CPU_ReadMem(4 bytes @ 0x40005420)
T5900 015:616.642   Data:  19 00 00 00
T5900 015:616.659 - 0.642ms returns 4 (0x4)
T1638 015:617.086 JLINK_IsHalted()
T1638 015:617.843 - 0.756ms returns FALSE
T1638 015:718.901 JLINK_HasError()
T1638 015:718.965 JLINK_IsHalted()
T1638 015:719.990 - 1.023ms returns FALSE
T1638 015:820.080 JLINK_HasError()
T1638 015:820.149 JLINK_IsHalted()
T1638 015:821.116 - 0.965ms returns FALSE
T1638 015:921.714 JLINK_HasError()
T1638 015:921.776 JLINK_IsHalted()
T1638 015:922.700 - 0.921ms returns FALSE
T1638 016:022.845 JLINK_HasError()
T1638 016:022.930 JLINK_IsHalted()
T1638 016:024.061 - 1.128ms returns FALSE
T1638 016:124.770 JLINK_HasError()
T1638 016:124.832 JLINK_HasError()
T1638 016:124.850 JLINK_ReadMemU32(0xE0001004, 0x1 Items)
T1638 016:124.900   Data:  BD CE 71 01
T1638 016:124.922   Debug reg: DWT_CYCCNT
T1638 016:124.944 - 0.093ms returns 1 (0x1)
T5900 016:125.173 JLINK_ReadMemEx(0x40010C00, 0xC Bytes, Flags = 0x02000004)
T5900 016:125.262   CPU_ReadMem(12 bytes @ 0x40010C00)
T5900 016:126.446   Data:  44 44 44 FF 43 44 44 44 FF FF 00 00
T5900 016:126.492 - 1.319ms returns 12 (0xC)
T5900 016:126.521 JLINK_ReadMemEx(0x40010C00, 0x4 Bytes, Flags = 0x02000004)
T5900 016:126.553   CPU_ReadMem(4 bytes @ 0x40010C00)
T5900 016:127.501   Data:  44 44 44 FF
T5900 016:127.525 - 1.004ms returns 4 (0x4)
T5900 016:127.547 JLINK_ReadMemEx(0x40010C04, 0x4 Bytes, Flags = 0x02000004)
T5900 016:127.567   CPU_ReadMem(4 bytes @ 0x40010C04)
T5900 016:128.482   Data:  43 44 44 44
T5900 016:128.528 - 0.980ms returns 4 (0x4)
T5900 016:128.553 JLINK_ReadMemEx(0x40010C08, 0x4 Bytes, Flags = 0x02000004)
T5900 016:128.575   CPU_ReadMem(4 bytes @ 0x40010C08)
T5900 016:129.496   Data:  FF FF 00 00
T5900 016:129.517 - 0.963ms returns 4 (0x4)
T5900 016:129.537 JLINK_ReadMemEx(0x40010C0C, 0x4 Bytes, Flags = 0x02000004)
T5900 016:129.555   CPU_ReadMem(4 bytes @ 0x40010C0C)
T5900 016:130.222   Data:  00 01 00 00
T5900 016:130.236 - 0.699ms returns 4 (0x4)
T5900 016:130.252 JLINK_ReadMemEx(0x40010C0C, 0x4 Bytes, Flags = 0x02000004)
T5900 016:130.265   CPU_ReadMem(4 bytes @ 0x40010C0C)
T5900 016:130.837   Data:  00 01 00 00
T5900 016:130.848 - 0.596ms returns 4 (0x4)
T5900 016:130.861 JLINK_ReadMemEx(0x40010C18, 0x4 Bytes, Flags = 0x02000004)
T5900 016:130.871   CPU_ReadMem(4 bytes @ 0x40010C18)
T5900 016:131.423   Data:  00 00 00 00
T5900 016:131.440 - 0.578ms returns 4 (0x4)
T5900 016:131.455 JLINK_ReadMemEx(0x40010C18, 0x4 Bytes, Flags = 0x02000004)
T5900 016:131.468   CPU_ReadMem(4 bytes @ 0x40010C18)
T5900 016:132.026   Data:  00 00 00 00
T5900 016:132.039 - 0.584ms returns 4 (0x4)
T5900 016:132.373 JLINK_ReadMemEx(0x40005400, 0x20 Bytes, Flags = 0x02000004)
T5900 016:132.395   CPU_ReadMem(32 bytes @ 0x40005400)
T5900 016:133.248   Data:  01 00 00 00 18 00 00 00 00 00 00 00 00 00 00 00 ...
T5900 016:133.259 - 0.886ms returns 32 (0x20)
T5900 016:133.270 JLINK_ReadMemEx(0x40005400, 0x4 Bytes, Flags = 0x02000004)
T5900 016:133.282   CPU_ReadMem(4 bytes @ 0x40005400)
T5900 016:133.973   Data:  01 00 00 00
T5900 016:133.990 - 0.720ms returns 4 (0x4)
T5900 016:133.997 JLINK_ReadMemEx(0x40005404, 0x4 Bytes, Flags = 0x02000004)
T5900 016:134.003   CPU_ReadMem(4 bytes @ 0x40005404)
T5900 016:134.660   Data:  18 00 00 00
T5900 016:134.667 - 0.670ms returns 4 (0x4)
T5900 016:134.674 JLINK_ReadMemEx(0x40005408, 0x4 Bytes, Flags = 0x02000004)
T5900 016:134.680   CPU_ReadMem(4 bytes @ 0x40005408)
T5900 016:135.315   Data:  00 00 00 00
T5900 016:135.323 - 0.649ms returns 4 (0x4)
T5900 016:135.330 JLINK_ReadMemEx(0x4000540C, 0x4 Bytes, Flags = 0x02000004)
T5900 016:135.338   CPU_ReadMem(4 bytes @ 0x4000540C)
T5900 016:135.935   Data:  00 00 00 00
T5900 016:135.942 - 0.612ms returns 4 (0x4)
T5900 016:135.949 JLINK_ReadMemEx(0x40005410, 0x4 Bytes, Flags = 0x02000004)
T5900 016:135.956   CPU_ReadMem(4 bytes @ 0x40005410)
T5900 016:136.523   Data:  00 00 00 00
T5900 016:136.531 - 0.582ms returns 4 (0x4)
T5900 016:136.539 JLINK_ReadMemEx(0x40005414, 0x4 Bytes, Flags = 0x02000004)
T5900 016:136.545   CPU_ReadMem(4 bytes @ 0x40005414)
T5900 016:137.214   Data:  00 00 00 00
T5900 016:137.223 - 0.684ms returns 4 (0x4)
T5900 016:137.236 JLINK_ReadMemEx(0x40005418, 0x4 Bytes, Flags = 0x02000004)
T5900 016:137.260   CPU_ReadMem(4 bytes @ 0x40005418)
T5900 016:137.940   Data:  00 00 00 00
T5900 016:137.952 - 0.717ms returns 4 (0x4)
T5900 016:137.961 JLINK_ReadMemEx(0x4000541C, 0x4 Bytes, Flags = 0x02000004)
T5900 016:137.969   CPU_ReadMem(4 bytes @ 0x4000541C)
T5900 016:138.584   Data:  78 00 00 00
T5900 016:138.592 - 0.631ms returns 4 (0x4)
T5900 016:138.607 JLINK_ReadMemEx(0x40005420, 0x4 Bytes, Flags = 0x02000004)
T5900 016:138.615   CPU_ReadMem(4 bytes @ 0x40005420)
T5900 016:139.294   Data:  19 00 00 00
T5900 016:139.304 - 0.697ms returns 4 (0x4)
T5900 016:139.312 JLINK_ReadMemEx(0x40005420, 0x4 Bytes, Flags = 0x02000004)
T5900 016:139.320   CPU_ReadMem(4 bytes @ 0x40005420)
T5900 016:139.938   Data:  19 00 00 00
T5900 016:139.948 - 0.635ms returns 4 (0x4)
T1638 016:140.260 JLINK_IsHalted()
T1638 016:140.959 - 0.697ms returns FALSE
T1638 016:241.833 JLINK_HasError()
T1638 016:241.863 JLINK_IsHalted()
T1638 016:242.620 - 0.755ms returns FALSE
T1638 016:343.693 JLINK_HasError()
T1638 016:343.761 JLINK_IsHalted()
T1638 016:344.797 - 1.035ms returns FALSE
T1638 016:444.889 JLINK_HasError()
T1638 016:444.957 JLINK_IsHalted()
T1638 016:445.827 - 0.867ms returns FALSE
T1638 016:545.923 JLINK_HasError()
T1638 016:545.993 JLINK_IsHalted()
T1638 016:547.090 - 1.094ms returns FALSE
T1638 016:647.323 JLINK_HasError()
T1638 016:647.392 JLINK_HasError()
T1638 016:647.415 JLINK_ReadMemU32(0xE0001004, 0x1 Items)
T1638 016:647.478   Data:  BD CE 71 01
T1638 016:647.506   Debug reg: DWT_CYCCNT
T1638 016:647.531 - 0.116ms returns 1 (0x1)
T5900 016:647.796 JLINK_ReadMemEx(0x40010C00, 0xC Bytes, Flags = 0x02000004)
T5900 016:647.902   CPU_ReadMem(12 bytes @ 0x40010C00)
T5900 016:649.001   Data:  44 44 44 FF 43 44 44 44 FF FF 00 00
T5900 016:649.034 - 1.239ms returns 12 (0xC)
T5900 016:649.069 JLINK_ReadMemEx(0x40010C00, 0x4 Bytes, Flags = 0x02000004)
T5900 016:649.102   CPU_ReadMem(4 bytes @ 0x40010C00)
T5900 016:650.079   Data:  44 44 44 FF
T5900 016:650.113 - 1.044ms returns 4 (0x4)
T5900 016:650.142 JLINK_ReadMemEx(0x40010C04, 0x4 Bytes, Flags = 0x02000004)
T5900 016:650.171   CPU_ReadMem(4 bytes @ 0x40010C04)
T5900 016:651.151   Data:  43 44 44 44
T5900 016:651.176 - 1.033ms returns 4 (0x4)
T5900 016:651.199 JLINK_ReadMemEx(0x40010C08, 0x4 Bytes, Flags = 0x02000004)
T5900 016:651.222   CPU_ReadMem(4 bytes @ 0x40010C08)
T5900 016:652.083   Data:  FF FF 00 00
T5900 016:652.109 - 0.909ms returns 4 (0x4)
T5900 016:652.133 JLINK_ReadMemEx(0x40010C0C, 0x4 Bytes, Flags = 0x02000004)
T5900 016:652.155   CPU_ReadMem(4 bytes @ 0x40010C0C)
T5900 016:652.888   Data:  00 01 00 00
T5900 016:652.913 - 0.780ms returns 4 (0x4)
T5900 016:652.946 JLINK_ReadMemEx(0x40010C0C, 0x4 Bytes, Flags = 0x02000004)
T5900 016:652.974   CPU_ReadMem(4 bytes @ 0x40010C0C)
T5900 016:653.700   Data:  00 01 00 00
T5900 016:653.726 - 0.780ms returns 4 (0x4)
T5900 016:653.750 JLINK_ReadMemEx(0x40010C18, 0x4 Bytes, Flags = 0x02000004)
T5900 016:653.770   CPU_ReadMem(4 bytes @ 0x40010C18)
T5900 016:654.441   Data:  00 00 00 00
T5900 016:654.467 - 0.717ms returns 4 (0x4)
T5900 016:654.489 JLINK_ReadMemEx(0x40010C18, 0x4 Bytes, Flags = 0x02000004)
T5900 016:654.509   CPU_ReadMem(4 bytes @ 0x40010C18)
T5900 016:655.246   Data:  00 00 00 00
T5900 016:655.272 - 0.782ms returns 4 (0x4)
T5900 016:656.073 JLINK_ReadMemEx(0x40005400, 0x20 Bytes, Flags = 0x02000004)
T5900 016:656.110   CPU_ReadMem(32 bytes @ 0x40005400)
T5900 016:657.085   Data:  01 00 00 00 18 00 00 00 00 00 00 00 00 00 00 00 ...
T5900 016:657.111 - 1.038ms returns 32 (0x20)
T5900 016:657.134 JLINK_ReadMemEx(0x40005400, 0x4 Bytes, Flags = 0x02000004)
T5900 016:657.156   CPU_ReadMem(4 bytes @ 0x40005400)
T5900 016:657.858   Data:  01 00 00 00
T5900 016:657.905 - 0.769ms returns 4 (0x4)
T5900 016:657.940 JLINK_ReadMemEx(0x40005404, 0x4 Bytes, Flags = 0x02000004)
T5900 016:657.976   CPU_ReadMem(4 bytes @ 0x40005404)
T5900 016:658.755   Data:  18 00 00 00
T5900 016:658.796 - 0.857ms returns 4 (0x4)
T5900 016:658.827 JLINK_ReadMemEx(0x40005408, 0x4 Bytes, Flags = 0x02000004)
T5900 016:658.861   CPU_ReadMem(4 bytes @ 0x40005408)
T5900 016:659.571   Data:  00 00 00 00
T5900 016:659.591 - 0.764ms returns 4 (0x4)
T5900 016:659.610 JLINK_ReadMemEx(0x4000540C, 0x4 Bytes, Flags = 0x02000004)
T5900 016:659.627   CPU_ReadMem(4 bytes @ 0x4000540C)
T5900 016:660.296   Data:  00 00 00 00
T5900 016:660.317 - 0.707ms returns 4 (0x4)
